
T033C 001:738 SEGGER J-Link V4.90 Log File (0001ms, 1531ms total)
T033C 001:738 DLL Compiled: Jul 28 2014 10:35:20 (0001ms, 1531ms total)
T033C 001:738 Logging started @ 2018-07-28 20:14 (0001ms, 1531ms total)
T033C 001:739 JLINK_SetWarnOutHandler(...) (0000ms, 1531ms total)
T033C 001:739 JLINK_OpenEx(...)
Firmware: J-Link ARM V8 compiled May 27 2009 17:31:22
Hardware: V8.00
Feature(s): RDI,FlashDL,FlashBP,JFlash,GDBFULL  returns O.K. (1081ms, 2612ms total)
T033C 002:820 JLINK_SetErrorOutHandler(...) (0000ms, 2612ms total)
T033C 002:820 JLINK_ExecCommand("ProjectFile = "C:\Users\Administrator\Desktop\test5\fsmc\Project\MDK-ARM(uV4)\JLinkSettings.ini"", ...)  returns 0x00 (0000ms, 2612ms total)
T033C 002:820 JLINK_ExecCommand("Device = STM32F407IG", ...)Device "STM32F407IG" selected (1024 KB flash, 128 KB RAM).  returns 0x00 (0002ms, 2614ms total)
T033C 002:822 JLINK_ExecCommand("DisableConnectionTimeout", ...)  returns 0x01 (0000ms, 2614ms total)
T033C 002:822 JLINK_GetHardwareVersion()  returns 0x13880 (0000ms, 2614ms total)
T033C 002:822 JLINK_GetDLLVersion()  returns 49000 (0000ms, 2614ms total)
T033C 002:822 JLINK_GetFirmwareString(...) (0000ms, 2614ms total)
T033C 002:822 JLINK_GetDLLVersion()  returns 49000 (0000ms, 2614ms total)
T033C 002:822 JLINK_GetCompileDateTime() (0000ms, 2614ms total)
T033C 002:822 JLINK_GetFirmwareString(...) (0000ms, 2614ms total)
T033C 002:822 JLINK_GetHardwareVersion()  returns 0x13880 (0000ms, 2614ms total)
T033C 002:823 JLINK_TIF_Select(JLINKARM_TIF_SWD)  returns 0x00 (0004ms, 2618ms total)
T033C 002:827 JLINK_SetSpeed(10000) (0001ms, 2619ms total)
T033C 002:828 JLINK_GetId() >0x108 TIF>Found SWD-DP with ID 0x2BA01477 >0x0D TIF> >0x28 TIF> >0x0D TIF> >0x28 TIF> >0x0D TIF> >0x21 TIF> >0x0D TIF> >0x28 TIF> >0x0D TIF> >0x28 TIF> >0x0D TIF> >0x28 TIF> >0x0D TIF> >0x21 TIF> >0x0D TIF> >0x21 TIF> >0x0D TIF> >0x28 TIF> >0x0D TIF> >0x21 TIF> >0x0D TIF> >0x21 TIF> >0x0D TIF> >0x28 TIF> >0x0D TIF> >0x21 TIF> >0x0D TIF> >0x21 TIF> >0x108 TIF>Found SWD-DP with ID 0x2BA01477 >0x0D TIF> >0x21 TIF> >0x0D TIF> >0x28 TIF> >0x0D TIF> >0x28 TIF> >0x0D TIF> >0x21 TIF>
 >0x0D TIF> >0x28 TIF> >0x0D TIF> >0x21 TIF> >0x0D TIF> >0x21 TIF> >0x0D TIF> >0x21 TIF> >0x0D TIF> >0x28 TIF> >0x0D TIF> >0x21 TIF> >0x0D TIF> >0x28 TIF> >0x0D TIF> >0x28 TIF> >0x0D TIF> >0x21 TIF> >0x0D TIF> >0x28 TIF> >0x0D TIF> >0x28 TIF> >0x0D TIF> >0x28 TIF> >0x0D TIF> >0x21 TIF> >0x0D TIF> >0x21 TIF> >0x0D TIF> >0x28 TIF> >0x0D TIF> >0x21 TIF> >0x0D TIF> >0x21 TIF>Found Cortex-M4 r0p1, Little endian. >0x0D TIF> >0x28 TIF> >0x0D TIF> >0x28 TIF> >0x1A2 TIF> >0x0D TIF> >0x28 TIF> >0x0D TIF>
 >0x28 TIF> >0x1A0 TIF> >0x0D TIF> >0x28 TIF> >0x0D TIF> >0x28 TIF> >0x1A0 TIF> >0x0D TIF> >0x28 TIF>FPUnit: 6 code (BP) slots and 2 literal slots >0x0D TIF> >0x28 TIF> >0x1A0 TIF> >0x0D TIF> >0x28 TIF> >0x0D TIF> >0x28 TIF> >0x1A0 TIF> >0x0D TIF> >0x28 TIF> >0x0D TIF> >0x28 TIF> >0x1A2 TIF> >0x0D TIF> >0x28 TIF> >0x0D TIF> >0x28 TIF> >0x1A0 TIF> >0x0D TIF> >0x28 TIF>TPIU fitted. >0x0D TIF> >0x28 TIF> >0x1A0 TIF> >0x0D TIF> >0x28 TIF>ETM fitted. >0x0D TIF> >0x28 TIF> >0x1A0 TIF> >0x0D TIF> >0x28 TIF>
 >0x0D TIF> >0x21 TIF>  returns 0x2BA01477 (1505ms, 4124ms total)
T033C 004:334 JLINK_GetDeviceFamily()  returns 14 (0000ms, 4124ms total)
T033C 004:335 JLINK_ReadMem (0xE00FFFF0, 0x0010 Bytes, ...) -- CPU is running >0x0D TIF> >0x28 TIF> >0x239 TIF> >0x0D TIF> >0x28 TIF> - Data: 0D 00 00 00 10 00 00 00 05 00 00 00 B1 00 00 00  returns 0x00 (0011ms, 4135ms total)
T033C 004:346 JLINK_ReadMem (0xE00FFFD0, 0x0020 Bytes, ...) -- CPU is running >0x0D TIF> >0x28 TIF> >0x305 TIF> >0x0D TIF> >0x28 TIF> - Data: 00 00 00 00 00 00 00 00 00 00 00 00 00 00 00 00 ...  returns 0x00 (0010ms, 4145ms total)
T033C 004:356 JLINK_ReadMem (0xE00FF000, 0x0018 Bytes, ...) -- CPU is running >0x0D TIF> >0x28 TIF> >0x29F TIF> >0x0D TIF> >0x28 TIF> - Data: 03 F0 F0 FF 03 20 F0 FF 03 30 F0 FF 03 10 F0 FF ...  returns 0x00 (0010ms, 4155ms total)
T033C 004:366 JLINK_ReadMemU32(0xE000ED00, 0x0001 Items, ...) -- CPU is running >0x0D TIF> >0x28 TIF> >0x1A0 TIF> >0x0D TIF> >0x28 TIF> - Data: 41 C2 0F 41  returns 0x01 (0010ms, 4165ms total)
T033C 004:376 JLINK_ReadMemU32(0xE000EF40, 0x0001 Items, ...) -- CPU is running >0x0D TIF> >0x28 TIF> >0x1A0 TIF> >0x0D TIF> >0x28 TIF> - Data: 21 00 11 10  returns 0x01 (0009ms, 4174ms total)
T033C 004:385 JLINK_ReadMemU32(0xE000EF44, 0x0001 Items, ...) -- CPU is running >0x0D TIF> >0x28 TIF> >0x1A0 TIF> >0x0D TIF> >0x28 TIF> - Data: 11 00 00 11  returns 0x01 (0010ms, 4184ms total)
T033C 004:395 JLINK_SetResetType(JLINKARM_RESET_TYPE_NORMAL)  returns JLINKARM_RESET_TYPE_NORMAL (0000ms, 4184ms total)
T033C 004:395 JLINK_Reset() -- CPU is running >0x0D TIF> >0x28 TIF> >0x1A2 TIF> >0x0D TIF> >0x28 TIF> -- CPU is running >0x0D TIF> >0x28 TIF> >0x1A2 TIF> >0x0D TIF> >0x28 TIF> >0x35 TIF> -- CPU is running >0x0D TIF> >0x28 TIF> >0x1A2 TIF> >0x0D TIF> >0x28 TIF> -- CPU is running >0x0D TIF> >0x28 TIF> >0x1A0 TIF> >0x0D TIF> >0x28 TIF> -- CPU is running >0x0D TIF> >0x28 TIF> >0x1A0 TIF> >0x0D TIF> >0x28 TIF> -- CPU is running >0x0D TIF> >0x28 TIF> >0x1A2 TIF> >0x0D TIF> >0x28 TIF> -- CPU is running
 >0x0D TIF> >0x28 TIF> >0x1A2 TIF> >0x0D TIF> >0x28 TIF> -- CPU is running >0x0D TIF> >0x28 TIF> >0x1A0 TIF> >0x0D TIF> >0x28 TIF> -- CPU is running >0x0D TIF> >0x28 TIF> >0x1A0 TIF> >0x0D TIF> >0x28 TIF> >0x11E4 TIF> >0x0D TIF> >0x28 TIF> >0x1A2 TIF> >0x0D TIF> >0x28 TIF> >0x0D TIF> >0x28 TIF> >0x1A0 TIF> >0x0D TIF> >0x28 TIF> >0x0D TIF> >0x28 TIF> >0x1A0 TIF> >0x0D TIF> >0x28 TIF> (0133ms, 4317ms total)
T033C 004:528 JLINK_ReadReg(R15 (PC))  returns 0x0800019C (0000ms, 4317ms total)
T033C 004:528 JLINK_ReadReg(XPSR)  returns 0x01000000 (0000ms, 4317ms total)
T033C 004:528 JLINK_Halt()  returns 0x00 (0000ms, 4317ms total)
T033C 004:528 JLINK_IsHalted()  returns TRUE (0000ms, 4317ms total)
T033C 004:528 JLINK_ReadMemU32(0xE000EDF0, 0x0001 Items, ...) >0x0D TIF> >0x28 TIF> >0x1A0 TIF> >0x0D TIF> >0x28 TIF> - Data: 03 00 03 00  returns 0x01 (0010ms, 4327ms total)
T033C 004:538 JLINK_WriteU32(0xE000EDF0, 0xA05F0003) >0x0D TIF> >0x28 TIF> >0x1A2 TIF> >0x0D TIF> >0x28 TIF>  returns 0x00 (0010ms, 4337ms total)
T033C 004:548 JLINK_WriteU32(0xE000EDFC, 0x01000000) >0x0D TIF> >0x28 TIF> >0x1A2 TIF> >0x0D TIF> >0x28 TIF>  returns 0x00 (0010ms, 4347ms total)
T033C 004:560 JLINK_GetHWStatus(...)  returns 0x00 (0001ms, 4348ms total)
T033C 004:561 JLINK_GetNumBPUnits(Type = 0xFFFFFF00)  returns 0x06 (0000ms, 4348ms total)
T033C 004:561 JLINK_GetNumBPUnits(Type = 0xF0)  returns 0x2000 (0000ms, 4348ms total)
T033C 004:561 JLINK_GetNumWPUnits()  returns 0x04 (0000ms, 4348ms total)
T033C 004:561 JLINK_GetSpeed()  returns 0x2580 (0000ms, 4348ms total)
T033C 004:561 JLINK_ReadMemU32(0xE000E004, 0x0001 Items, ...) >0x0D TIF> >0x28 TIF> >0x1A0 TIF> >0x0D TIF> >0x28 TIF> - Data: 02 00 00 00  returns 0x01 (0010ms, 4358ms total)
T033C 004:571 JLINK_ReadMemU32(0xE000E004, 0x0001 Items, ...) >0x0D TIF> >0x28 TIF> >0x1A0 TIF> >0x0D TIF> >0x28 TIF> - Data: 02 00 00 00  returns 0x01 (0010ms, 4368ms total)
T033C 004:581 JLINK_WriteMem(0xE0001000, 0x001C Bytes, ...) - Data: 01 00 00 00 00 00 00 00 00 00 00 00 00 00 00 00 ... >0x0D TIF> >0x28 TIF> >0x2E0 TIF> >0x0D TIF> >0x28 TIF>  returns 0x1C (0010ms, 4378ms total)
T033C 004:591 JLINK_ReadMem (0xE0001000, 0x001C Bytes, ...) >0x0D TIF> >0x28 TIF> >0x2D2 TIF> >0x0D TIF> >0x28 TIF> - Data: 01 00 00 40 00 00 00 00 00 00 00 00 00 00 00 00 ...  returns 0x00 (0010ms, 4388ms total)
T033C 004:601 JLINK_ReadReg(R15 (PC))  returns 0x0800019C (0000ms, 4388ms total)
T033C 004:601 JLINK_ReadReg(XPSR)  returns 0x01000000 (0000ms, 4388ms total)
T033C 004:669 JLINK_SetResetType(JLINKARM_RESET_TYPE_NORMAL)  returns JLINKARM_RESET_TYPE_NORMAL (0000ms, 4388ms total)
T033C 004:669 JLINK_Reset() >0x0D TIF> >0x28 TIF> >0x1A2 TIF> >0x0D TIF> >0x28 TIF> >0x0D TIF> >0x28 TIF> >0x1A2 TIF> >0x0D TIF> >0x28 TIF> >0x35 TIF> >0x0D TIF> >0x28 TIF> >0x1A2 TIF> >0x0D TIF> >0x28 TIF> >0x0D TIF> >0x28 TIF> >0x1A0 TIF> >0x0D TIF> >0x28 TIF> >0x0D TIF> >0x28 TIF> >0x1A0 TIF> >0x0D TIF> >0x28 TIF> >0x0D TIF> >0x28 TIF> >0x1A2 TIF> >0x0D TIF> >0x28 TIF> >0x0D TIF> >0x28 TIF> >0x1A2 TIF> >0x0D TIF> >0x28 TIF> -- CPU is running >0x0D TIF> >0x28 TIF> >0x1A0 TIF> >0x0D TIF> >0x28 TIF>
 -- CPU is running >0x0D TIF> >0x28 TIF> >0x1A0 TIF> >0x0D TIF> >0x28 TIF> >0x11E4 TIF> >0x0D TIF> >0x28 TIF> >0x1A2 TIF> >0x0D TIF> >0x28 TIF> >0x0D TIF> >0x28 TIF> >0x1A0 TIF> >0x0D TIF> >0x28 TIF> >0x0D TIF> >0x28 TIF> >0x1A0 TIF> >0x0D TIF> >0x28 TIF> (0130ms, 4518ms total)
T033C 004:800 JLINK_ReadReg(R15 (PC))  returns 0x0800019C (0000ms, 4518ms total)
T033C 004:800 JLINK_ReadReg(XPSR)  returns 0x01000000 (0000ms, 4518ms total)
T033C 004:800 JLINK_ReadMem (0x0800019C, 0x003C Bytes, ...) >0x0D TIF> >0x28 TIF> >0x7CD TIF> >0x0D TIF> >0x28 TIF> -- Updating C cache (128 bytes @ 0x08000180) -- Read from C cache (60 bytes @ 0x0800019C) - Data: 06 48 80 47 06 48 00 47 FE E7 FE E7 FE E7 FE E7 ...  returns 0x00 (0010ms, 4528ms total)
T033C 005:549 JLINK_ReadMem (0x6C400000, 0x00A1 Bytes, ...) >0x0D TIF> >0x28 TIF> >0x2180 TIF> >0x0D TIF> >0x28 TIF> - Data: 00 00 00 00 00 00 00 00 00 00 00 00 00 00 00 00 ...  returns 0x00 (0017ms, 4546ms total)
T27DC 005:573 JLINK_SetBPEx(Addr = 0x08001B64, Type = 0xFFFFFFF2)  returns 0x00000001 (0000ms, 4546ms total)
T27DC 005:573 JLINK_SetBPEx(Addr = 0x08001BE6, Type = 0xFFFFFFF2)  returns 0x00000002 (0000ms, 4546ms total)
T27DC 005:573 JLINK_SetBPEx(Addr = 0x08001BE2, Type = 0xFFFFFFF2)  returns 0x00000003 (0000ms, 4546ms total)
T27DC 005:573 JLINK_SetBPEx(Addr = 0x08001B76, Type = 0xFFFFFFF2)  returns 0x00000004 (0001ms, 4547ms total)
T27DC 005:574 JLINK_SetBPEx(Addr = 0x08001B72, Type = 0xFFFFFFF2)  returns 0x00000005 (0000ms, 4547ms total)
T27DC 005:574 JLINK_Go() >0x0D TIF> >0x28 TIF> >0x1A0 TIF> >0x0D TIF> >0x28 TIF> >0x0D TIF> >0x28 TIF> >0x1A2 TIF> >0x0D TIF> >0x28 TIF> >0x0D TIF> >0x28 TIF> >0x1A2 TIF> >0x0D TIF> >0x28 TIF> >0x0D TIF> >0x28 TIF> >0x1A2 TIF> >0x0D TIF> >0x28 TIF> >0x0D TIF> >0x28 TIF> >0x1A2 TIF> >0x0D TIF> >0x28 TIF> >0x0D TIF> >0x28 TIF> >0x1A2 TIF> >0x0D TIF> >0x28 TIF> >0x0D TIF> >0x28 TIF> >0x1A2 TIF> >0x0D TIF> >0x28 TIF> >0x0D TIF> >0x28 TIF> >0x1A2 TIF> >0x0D TIF> >0x28 TIF> >0x0D TIF> >0x28 TIF> >0x1A2 TIF>
 >0x0D TIF> >0x28 TIF> >0x0D TIF> >0x28 TIF> >0x1A2 TIF> >0x0D TIF> >0x28 TIF> >0x0D TIF> >0x28 TIF> >0x1A2 TIF> >0x0D TIF> >0x28 TIF> >0x0D TIF> >0x28 TIF> >0x1A2 TIF> >0x0D TIF> >0x28 TIF> >0x0D TIF> >0x28 TIF> >0x1A2 TIF> >0x0D TIF> >0x28 TIF> (0131ms, 4678ms total)
T27DC 005:805 JLINK_IsHalted() -- CPU is running >0x0D TIF> >0x28 TIF> >0x1A0 TIF> >0x0D TIF> >0x28 TIF> >0x11E4 TIF>  returns TRUE (0014ms, 4692ms total)
T27DC 005:819 JLINK_Halt()  returns 0x00 (0000ms, 4678ms total)
T27DC 005:819 JLINK_IsHalted()  returns TRUE (0000ms, 4678ms total)
T27DC 005:819 JLINK_IsHalted()  returns TRUE (0000ms, 4678ms total)
T27DC 005:820 JLINK_IsHalted()  returns TRUE (0000ms, 4678ms total)
T27DC 005:820 JLINK_ReadReg(R15 (PC))  returns 0x08001B64 (0000ms, 4678ms total)
T27DC 005:820 JLINK_ReadReg(XPSR)  returns 0x61000000 (0000ms, 4678ms total)
T27DC 005:820 JLINK_ClrBPEx(BPHandle = 0x00000001)  returns 0x00 (0000ms, 4678ms total)
T27DC 005:820 JLINK_ClrBPEx(BPHandle = 0x00000002)  returns 0x00 (0000ms, 4678ms total)
T27DC 005:820 JLINK_ClrBPEx(BPHandle = 0x00000003)  returns 0x00 (0000ms, 4678ms total)
T27DC 005:820 JLINK_ClrBPEx(BPHandle = 0x00000004)  returns 0x00 (0000ms, 4678ms total)
T27DC 005:820 JLINK_ClrBPEx(BPHandle = 0x00000005)  returns 0x00 (0000ms, 4678ms total)
T27DC 005:820 JLINK_ReadMemU32(0xE000ED30, 0x0001 Items, ...) >0x0D TIF> >0x28 TIF> >0x1A0 TIF> >0x0D TIF> >0x28 TIF> - Data: 0B 00 00 00  returns 0x01 (0009ms, 4687ms total)
T27DC 005:829 JLINK_ReadMemU32(0xE0001028, 0x0001 Items, ...) >0x0D TIF> >0x28 TIF> >0x1A0 TIF> >0x0D TIF> >0x28 TIF> - Data: 00 00 00 00  returns 0x01 (0010ms, 4697ms total)
T27DC 005:839 JLINK_ReadMemU32(0xE0001038, 0x0001 Items, ...) >0x0D TIF> >0x28 TIF> >0x1A0 TIF> >0x0D TIF> >0x28 TIF> - Data: 00 02 00 00  returns 0x01 (0010ms, 4707ms total)
T27DC 005:849 JLINK_ReadMemU32(0xE0001048, 0x0001 Items, ...) >0x0D TIF> >0x28 TIF> >0x1A0 TIF> >0x0D TIF> >0x28 TIF> - Data: 00 00 00 00  returns 0x01 (0010ms, 4717ms total)
T27DC 005:859 JLINK_ReadMemU32(0xE0001058, 0x0001 Items, ...) >0x0D TIF> >0x28 TIF> >0x1A0 TIF> >0x0D TIF> >0x28 TIF> - Data: 00 00 00 00  returns 0x01 (0010ms, 4727ms total)
T27DC 005:869 JLINK_ReadReg(R0)  returns 0x08001B65 (0000ms, 4727ms total)
T27DC 005:869 JLINK_ReadReg(R1)  returns 0x20007148 (0001ms, 4728ms total)
T27DC 005:870 JLINK_ReadReg(R2)  returns 0x00000000 (0000ms, 4728ms total)
T27DC 005:870 JLINK_ReadReg(R3)  returns 0x080015B5 (0000ms, 4728ms total)
T27DC 005:870 JLINK_ReadReg(R4)  returns 0x08001CCC (0000ms, 4728ms total)
T27DC 005:870 JLINK_ReadReg(R5)  returns 0x08001CCC (0000ms, 4728ms total)
T27DC 005:870 JLINK_ReadReg(R6)  returns 0x00000000 (0000ms, 4728ms total)
T27DC 005:870 JLINK_ReadReg(R7)  returns 0x00000000 (0000ms, 4728ms total)
T27DC 005:870 JLINK_ReadReg(R8)  returns 0x00000000 (0000ms, 4728ms total)
T27DC 005:870 JLINK_ReadReg(R9)  returns 0x00000000 (0000ms, 4728ms total)
T27DC 005:870 JLINK_ReadReg(R10)  returns 0x00000000 (0000ms, 4728ms total)
T27DC 005:870 JLINK_ReadReg(R11)  returns 0x00000000 (0000ms, 4728ms total)
T27DC 005:870 JLINK_ReadReg(R12)  returns 0x00000000 (0000ms, 4728ms total)
T27DC 005:870 JLINK_ReadReg(R13 (SP))  returns 0x20007148 (0000ms, 4728ms total)
T27DC 005:870 JLINK_ReadReg(R14)  returns 0x08000209 (0000ms, 4728ms total)
T27DC 005:870 JLINK_ReadReg(R15 (PC))  returns 0x08001B64 (0000ms, 4728ms total)
T27DC 005:870 JLINK_ReadReg(XPSR)  returns 0x61000000 (0000ms, 4728ms total)
T27DC 005:870 JLINK_ReadReg(MSP)  returns 0x20007148 (0000ms, 4728ms total)
T27DC 005:870 JLINK_ReadReg(PSP)  returns 0x00000000 (0000ms, 4728ms total)
T27DC 005:870 JLINK_ReadReg(CFBP)  returns 0x00000000 (0000ms, 4728ms total)
T27DC 005:870 JLINK_ReadReg(FPSCR) >0x0D TIF> >0x28 TIF> >0x1BA4 TIF> >0x0D TIF> >0x28 TIF>  returns 0x00000000 (0014ms, 4742ms total)
T27DC 005:884 JLINK_ReadReg(FPS0)  returns 0x00000000 (0000ms, 4742ms total)
T27DC 005:884 JLINK_ReadReg(FPS1)  returns 0x00000000 (0000ms, 4742ms total)
T27DC 005:884 JLINK_ReadReg(FPS2)  returns 0x00000000 (0000ms, 4742ms total)
T27DC 005:884 JLINK_ReadReg(FPS3)  returns 0x00000000 (0000ms, 4742ms total)
T27DC 005:884 JLINK_ReadReg(FPS4)  returns 0x00000000 (0000ms, 4742ms total)
T27DC 005:884 JLINK_ReadReg(FPS5)  returns 0x00000000 (0000ms, 4742ms total)
T27DC 005:884 JLINK_ReadReg(FPS6)  returns 0x00000000 (0000ms, 4742ms total)
T27DC 005:884 JLINK_ReadReg(FPS7)  returns 0x00000000 (0000ms, 4742ms total)
T27DC 005:884 JLINK_ReadReg(FPS8)  returns 0x00000000 (0000ms, 4742ms total)
T27DC 005:884 JLINK_ReadReg(FPS9)  returns 0x00000000 (0000ms, 4742ms total)
T27DC 005:884 JLINK_ReadReg(FPS10)  returns 0x00000000 (0000ms, 4742ms total)
T27DC 005:884 JLINK_ReadReg(FPS11)  returns 0x00000000 (0000ms, 4742ms total)
T27DC 005:884 JLINK_ReadReg(FPS12)  returns 0x00000000 (0000ms, 4742ms total)
T27DC 005:884 JLINK_ReadReg(FPS13)  returns 0x00000000 (0000ms, 4742ms total)
T27DC 005:884 JLINK_ReadReg(FPS14)  returns 0x00000000 (0000ms, 4742ms total)
T27DC 005:884 JLINK_ReadReg(FPS15)  returns 0x00000000 (0000ms, 4742ms total)
T27DC 005:884 JLINK_ReadReg(FPS16)  returns 0x00000000 (0000ms, 4742ms total)
T27DC 005:884 JLINK_ReadReg(FPS17)  returns 0x00000000 (0000ms, 4742ms total)
T27DC 005:884 JLINK_ReadReg(FPS18)  returns 0x00000000 (0000ms, 4742ms total)
T27DC 005:884 JLINK_ReadReg(FPS19)  returns 0x00000000 (0000ms, 4742ms total)
T27DC 005:884 JLINK_ReadReg(FPS20)  returns 0x00000000 (0000ms, 4742ms total)
T27DC 005:884 JLINK_ReadReg(FPS31)  returns 0x00000000 (0000ms, 4742ms total)
T27DC 005:884 JLINK_ReadReg(FPS7)  returns 0x00000000 (0000ms, 4742ms total)
T27DC 005:884 JLINK_ReadReg(FPS8)  returns 0x00000000 (0000ms, 4742ms total)
T27DC 005:884 JLINK_ReadReg(FPS9)  returns 0x00000000 (0000ms, 4742ms total)
T27DC 005:884 JLINK_ReadReg(FPS10)  returns 0x00000000 (0000ms, 4742ms total)
T27DC 005:884 JLINK_ReadReg(FPS11)  returns 0x00000000 (0000ms, 4742ms total)
T27DC 005:884 JLINK_ReadReg(FPS12)  returns 0x00000000 (0000ms, 4742ms total)
T27DC 005:884 JLINK_ReadReg(FPS13)  returns 0x00000000 (0000ms, 4742ms total)
T27DC 005:884 JLINK_ReadReg(FPS14)  returns 0x00000000 (0000ms, 4742ms total)
T27DC 005:884 JLINK_ReadReg(FPS15)  returns 0x00000000 (0000ms, 4742ms total)
T27DC 005:884 JLINK_ReadReg(FPS16)  returns 0x00000000 (0000ms, 4742ms total)
T033C 005:885 JLINK_ReadMem (0x00000000, 0x0001 Bytes, ...) >0x0D TIF> >0x28 TIF> >0x1A0 TIF> >0x0D TIF> >0x28 TIF> >0x0D TIF> >0x28 TIF> >0x49D TIF> >0x0D TIF> >0x28 TIF> -- Updating C cache (64 bytes @ 0x08000000) -- Read from C cache (1 bytes @ 0x08000000) - Data: 48  returns 0x00 (0021ms, 4763ms total)
T033C 005:906 JLINK_ReadMemU32(0xE0001004, 0x0001 Items, ...) >0x0D TIF> >0x28 TIF> >0x1A0 TIF> >0x0D TIF> >0x28 TIF> - Data: A9 CC 00 00  returns 0x01 (0010ms, 4773ms total)
T033C 005:916 JLINK_ReadMem (0x6C400000, 0x00A1 Bytes, ...) >0x0D TIF> >0x28 TIF> >0x2180 TIF> >0x0D TIF> >0x28 TIF> - Data: 00 00 00 00 00 00 00 00 00 00 00 00 00 00 00 00 ...  returns 0x00 (0015ms, 4788ms total)
T033C 005:933 JLINK_ReadMem (0x08001B64, 0x003C Bytes, ...) >0x0D TIF> >0x28 TIF> >0x7CD TIF> >0x0D TIF> >0x28 TIF> -- Updating C cache (128 bytes @ 0x08001B40) -- Read from C cache (60 bytes @ 0x08001B64) - Data: 08 B5 00 24 00 25 FF F7 00 FF FF F7 05 FF FE F7 ...  returns 0x00 (0011ms, 4799ms total)
T27DC 015:021 JLINK_SetBPEx(Addr = 0x08001BE6, Type = 0xFFFFFFF2)  returns 0x00000006 (0001ms, 4800ms total)
T27DC 015:022 JLINK_SetBPEx(Addr = 0x08001BE2, Type = 0xFFFFFFF2)  returns 0x00000007 (0000ms, 4800ms total)
T27DC 015:022 JLINK_SetBPEx(Addr = 0x08001B76, Type = 0xFFFFFFF2)  returns 0x00000008 (0000ms, 4800ms total)
T27DC 015:022 JLINK_SetBPEx(Addr = 0x08001B72, Type = 0xFFFFFFF2)  returns 0x00000009 (0000ms, 4800ms total)
T27DC 015:022 JLINK_Go() >0x0D TIF> >0x28 TIF> >0x1A0 TIF> >0x0D TIF> >0x28 TIF> >0x0D TIF> >0x28 TIF> >0x1A2 TIF> >0x0D TIF> >0x28 TIF> >0x0D TIF> >0x28 TIF> >0x1A2 TIF> >0x0D TIF> >0x28 TIF> >0x0D TIF> >0x28 TIF> >0x1A2 TIF> >0x0D TIF> >0x28 TIF> >0x0D TIF> >0x28 TIF> >0x1A2 TIF> >0x0D TIF> >0x28 TIF> >0x0D TIF> >0x28 TIF> >0x1A2 TIF> >0x0D TIF> >0x28 TIF> >0x0D TIF> >0x28 TIF> >0x1A2 TIF> >0x0D TIF> >0x28 TIF> >0x0D TIF> >0x28 TIF> >0x1A2 TIF> >0x0D TIF> >0x28 TIF> >0x0D TIF> >0x28 TIF> >0x1A2 TIF>
 >0x0D TIF> >0x28 TIF> >0x0D TIF> >0x28 TIF> >0x1A2 TIF> >0x0D TIF> >0x28 TIF> >0x0D TIF> >0x28 TIF> >0x1A2 TIF> >0x0D TIF> >0x28 TIF> (0110ms, 4910ms total)
T27DC 015:232 JLINK_IsHalted() -- CPU is running >0x0D TIF> >0x28 TIF> >0x1A0 TIF> >0x0D TIF> >0x28 TIF> >0x11E4 TIF>  returns TRUE (0014ms, 4924ms total)
T27DC 015:246 JLINK_Halt()  returns 0x00 (0000ms, 4910ms total)
T27DC 015:246 JLINK_IsHalted()  returns TRUE (0000ms, 4910ms total)
T27DC 015:247 JLINK_IsHalted()  returns TRUE (0000ms, 4910ms total)
T27DC 015:247 JLINK_IsHalted()  returns TRUE (0000ms, 4910ms total)
T27DC 015:247 JLINK_ReadReg(R15 (PC))  returns 0x08001B72 (0000ms, 4910ms total)
T27DC 015:247 JLINK_ReadReg(XPSR)  returns 0x01000000 (0000ms, 4910ms total)
T27DC 015:247 JLINK_ClrBPEx(BPHandle = 0x00000006)  returns 0x00 (0000ms, 4910ms total)
T27DC 015:247 JLINK_ClrBPEx(BPHandle = 0x00000007)  returns 0x00 (0000ms, 4910ms total)
T27DC 015:247 JLINK_ClrBPEx(BPHandle = 0x00000008)  returns 0x00 (0000ms, 4910ms total)
T27DC 015:247 JLINK_ClrBPEx(BPHandle = 0x00000009)  returns 0x00 (0000ms, 4910ms total)
T27DC 015:247 JLINK_ReadMemU32(0xE000ED30, 0x0001 Items, ...) >0x0D TIF> >0x28 TIF> >0x1A0 TIF> >0x0D TIF> >0x28 TIF> - Data: 0B 00 00 00  returns 0x01 (0009ms, 4919ms total)
T27DC 015:256 JLINK_ReadMemU32(0xE0001028, 0x0001 Items, ...) >0x0D TIF> >0x28 TIF> >0x1A0 TIF> >0x0D TIF> >0x28 TIF> - Data: 00 00 00 00  returns 0x01 (0010ms, 4929ms total)
T27DC 015:266 JLINK_ReadMemU32(0xE0001038, 0x0001 Items, ...) >0x0D TIF> >0x28 TIF> >0x1A0 TIF> >0x0D TIF> >0x28 TIF> - Data: 00 02 00 00  returns 0x01 (0010ms, 4939ms total)
T27DC 015:276 JLINK_ReadMemU32(0xE0001048, 0x0001 Items, ...) >0x0D TIF> >0x28 TIF> >0x1A0 TIF> >0x0D TIF> >0x28 TIF> - Data: 00 00 00 00  returns 0x01 (0010ms, 4949ms total)
T27DC 015:286 JLINK_ReadMemU32(0xE0001058, 0x0001 Items, ...) >0x0D TIF> >0x28 TIF> >0x1A0 TIF> >0x0D TIF> >0x28 TIF> - Data: 00 00 00 00  returns 0x01 (0010ms, 4959ms total)
T27DC 015:296 JLINK_ReadReg(R0)  returns 0x00001000 (0000ms, 4959ms total)
T27DC 015:296 JLINK_ReadReg(R1)  returns 0x40021C18 (0001ms, 4960ms total)
T27DC 015:297 JLINK_ReadReg(R2)  returns 0x40021C1A (0000ms, 4960ms total)
T27DC 015:297 JLINK_ReadReg(R3)  returns 0xA0000000 (0000ms, 4960ms total)
T27DC 015:297 JLINK_ReadReg(R4)  returns 0x00000000 (0000ms, 4960ms total)
T27DC 015:297 JLINK_ReadReg(R5)  returns 0x00000000 (0000ms, 4960ms total)
T27DC 015:297 JLINK_ReadReg(R6)  returns 0x00000000 (0000ms, 4960ms total)
T27DC 015:297 JLINK_ReadReg(R7)  returns 0x00000000 (0000ms, 4960ms total)
T27DC 015:297 JLINK_ReadReg(R8)  returns 0x00000000 (0000ms, 4960ms total)
T27DC 015:297 JLINK_ReadReg(R9)  returns 0x00000000 (0000ms, 4960ms total)
T27DC 015:297 JLINK_ReadReg(R10)  returns 0x00000000 (0000ms, 4960ms total)
T27DC 015:297 JLINK_ReadReg(R11)  returns 0x00000000 (0000ms, 4960ms total)
T27DC 015:297 JLINK_ReadReg(R12)  returns 0x00000150 (0000ms, 4960ms total)
T27DC 015:297 JLINK_ReadReg(R13 (SP))  returns 0x20007140 (0000ms, 4960ms total)
T27DC 015:297 JLINK_ReadReg(R14)  returns 0x08001997 (0000ms, 4960ms total)
T27DC 015:297 JLINK_ReadReg(R15 (PC))  returns 0x08001B72 (0000ms, 4960ms total)
T27DC 015:297 JLINK_ReadReg(XPSR)  returns 0x01000000 (0000ms, 4960ms total)
T27DC 015:297 JLINK_ReadReg(MSP)  returns 0x20007140 (0000ms, 4960ms total)
T27DC 015:297 JLINK_ReadReg(PSP)  returns 0x00000000 (0000ms, 4960ms total)
T27DC 015:297 JLINK_ReadReg(CFBP)  returns 0x00000000 (0000ms, 4960ms total)
T27DC 015:297 JLINK_ReadReg(FPSCR) >0x0D TIF> >0x28 TIF> >0x1BA4 TIF> >0x0D TIF> >0x28 TIF>  returns 0x00000000 (0013ms, 4973ms total)
T27DC 015:310 JLINK_ReadReg(FPS0)  returns 0x00000000 (0000ms, 4973ms total)
T27DC 015:310 JLINK_ReadReg(FPS1)  returns 0x00000000 (0001ms, 4974ms total)
T27DC 015:311 JLINK_ReadReg(FPS2)  returns 0x00000000 (0000ms, 4974ms total)
T27DC 015:311 JLINK_ReadReg(FPS3)  returns 0x00000000 (0000ms, 4974ms total)
T27DC 015:311 JLINK_ReadReg(FPS4)  returns 0x00000000 (0000ms, 4974ms total)
T27DC 015:311 JLINK_ReadReg(FPS5)  returns 0x00000000 (0000ms, 4974ms total)
T27DC 015:311 JLINK_ReadReg(FPS6)  returns 0x00000000 (0000ms, 4974ms total)
T27DC 015:311 JLINK_ReadReg(FPS7)  returns 0x00000000 (0000ms, 4974ms total)
T27DC 015:311 JLINK_ReadReg(FPS8)  returns 0x00000000 (0000ms, 4974ms total)
T27DC 015:311 JLINK_ReadReg(FPS9)  returns 0x00000000 (0000ms, 4974ms total)
T27DC 015:311 JLINK_ReadReg(FPS10)  returns 0x00000000 (0000ms, 4974ms total)
T27DC 015:311 JLINK_ReadReg(FPS11)  returns 0x00000000 (0000ms, 4974ms total)
T27DC 015:311 JLINK_ReadReg(FPS12)  returns 0x00000000 (0000ms, 4974ms total)
T27DC 015:311 JLINK_ReadReg(FPS13)  returns 0x00000000 (0000ms, 4974ms total)
T27DC 015:311 JLINK_ReadReg(FPS14)  returns 0x00000000 (0000ms, 4974ms total)
T27DC 015:311 JLINK_ReadReg(FPS15)  returns 0x00000000 (0000ms, 4974ms total)
T27DC 015:311 JLINK_ReadReg(FPS16)  returns 0x00000000 (0000ms, 4974ms total)
T27DC 015:311 JLINK_ReadReg(FPS17)  returns 0x00000000 (0000ms, 4974ms total)
T27DC 015:311 JLINK_ReadReg(FPS18)  returns 0x00000000 (0000ms, 4974ms total)
T27DC 015:311 JLINK_ReadReg(FPS19)  returns 0x00000000 (0000ms, 4974ms total)
T27DC 015:311 JLINK_ReadReg(FPS20)  returns 0x00000000 (0000ms, 4974ms total)
T27DC 015:311 JLINK_ReadReg(FPS31)  returns 0x00000000 (0000ms, 4974ms total)
T27DC 015:311 JLINK_ReadReg(FPS7)  returns 0x00000000 (0000ms, 4974ms total)
T27DC 015:311 JLINK_ReadReg(FPS8)  returns 0x00000000 (0000ms, 4974ms total)
T27DC 015:311 JLINK_ReadReg(FPS9)  returns 0x00000000 (0000ms, 4974ms total)
T27DC 015:311 JLINK_ReadReg(FPS10)  returns 0x00000000 (0000ms, 4974ms total)
T27DC 015:311 JLINK_ReadReg(FPS11)  returns 0x00000000 (0000ms, 4974ms total)
T27DC 015:311 JLINK_ReadReg(FPS12)  returns 0x00000000 (0000ms, 4974ms total)
T27DC 015:311 JLINK_ReadReg(FPS13)  returns 0x00000000 (0000ms, 4974ms total)
T27DC 015:311 JLINK_ReadReg(FPS14)  returns 0x00000000 (0000ms, 4974ms total)
T27DC 015:311 JLINK_ReadReg(FPS15)  returns 0x00000000 (0000ms, 4974ms total)
T27DC 015:311 JLINK_ReadReg(FPS16)  returns 0x00000000 (0000ms, 4974ms total)
T033C 015:311 JLINK_ReadMem (0x20007144, 0x0004 Bytes, ...) >0x0D TIF> >0x28 TIF> >0x49D TIF> >0x0D TIF> >0x28 TIF> -- Updating C cache (64 bytes @ 0x20007140) -- Read from C cache (4 bytes @ 0x20007144) - Data: 09 02 00 08  returns 0x00 (0012ms, 4986ms total)
T033C 015:323 JLINK_ReadMem (0x00000000, 0x0001 Bytes, ...) >0x0D TIF> >0x28 TIF> >0x1A0 TIF> >0x0D TIF> >0x28 TIF> >0x0D TIF> >0x28 TIF> >0x49D TIF> >0x0D TIF> >0x28 TIF> -- Updating C cache (64 bytes @ 0x08000000) -- Read from C cache (1 bytes @ 0x08000000) - Data: 48  returns 0x00 (0021ms, 5007ms total)
T033C 015:344 JLINK_ReadMemU32(0xE0001004, 0x0001 Items, ...) >0x0D TIF> >0x28 TIF> >0x1A0 TIF> >0x0D TIF> >0x28 TIF> - Data: 8A F9 00 00  returns 0x01 (0009ms, 5016ms total)
T033C 015:353 JLINK_ReadMem (0x6C400000, 0x00A1 Bytes, ...) >0x0D TIF> >0x28 TIF> >0x2180 TIF> >0x0D TIF> >0x28 TIF> - Data: 03 1B FA 1C 01 1C F0 1B 03 1B FA 1C 01 1C F0 1B ...  returns 0x00 (0014ms, 5030ms total)
T033C 015:369 JLINK_ReadMem (0x08001B72, 0x0002 Bytes, ...) >0x0D TIF> >0x28 TIF> >0x49D TIF> >0x0D TIF> >0x28 TIF> -- Updating C cache (64 bytes @ 0x08001B40) -- Read from C cache (2 bytes @ 0x08001B72) - Data: FE F7  returns 0x00 (0011ms, 5041ms total)
T033C 015:380 JLINK_ReadMem (0x08001B74, 0x003C Bytes, ...) >0x0D TIF> >0x28 TIF> >0x49D TIF> >0x0D TIF> >0x28 TIF> -- Updating C cache (64 bytes @ 0x08001B80) -- Read from C cache (60 bytes @ 0x08001B74) - Data: E5 FD 4F F4 7A 71 01 20 FF F7 76 FF FE F7 FC FC ...  returns 0x00 (0011ms, 5052ms total)
T27DC 016:245 JLINK_Step() >0x0D TIF> >0x28 TIF> >0x1A0 TIF> >0x0D TIF> >0x28 TIF> -- Read from C cache (2 bytes @ 0x08001B72) -- Read from C cache (2 bytes @ 0x08001B74) -- Simulated  returns 0x00 (0012ms, 5064ms total)
T27DC 016:257 JLINK_ReadReg(R15 (PC))  returns 0x08000740 (0000ms, 5064ms total)
T27DC 016:257 JLINK_ReadReg(XPSR)  returns 0x01000000 (0000ms, 5064ms total)
T27DC 016:257 JLINK_SetBPEx(Addr = 0x08001BE6, Type = 0xFFFFFFF2)  returns 0x0000000A (0000ms, 5064ms total)
T27DC 016:257 JLINK_SetBPEx(Addr = 0x08001BE2, Type = 0xFFFFFFF2)  returns 0x0000000B (0000ms, 5064ms total)
T27DC 016:257 JLINK_SetBPEx(Addr = 0x08001B76, Type = 0xFFFFFFF2)  returns 0x0000000C (0000ms, 5064ms total)
T27DC 016:257 JLINK_SetBPEx(Addr = 0x08001B72, Type = 0xFFFFFFF2)  returns 0x0000000D (0000ms, 5064ms total)
T27DC 016:257 JLINK_Go() >0x0D TIF> >0x28 TIF> >0x1A2 TIF> >0x0D TIF> >0x28 TIF> >0x0D TIF> >0x28 TIF> >0x1A2 TIF> >0x0D TIF> >0x28 TIF> >0x0D TIF> >0x28 TIF> >0x1A2 TIF> >0x0D TIF> >0x28 TIF> >0x0D TIF> >0x28 TIF> >0x1A2 TIF> >0x0D TIF> >0x28 TIF> >0x0D TIF> >0x28 TIF> >0x20E TIF> >0x13A TIF> >0x1A2 TIF> >0x0D TIF> >0x28 TIF> (0054ms, 5118ms total)
T27DC 016:411 JLINK_IsHalted() -- CPU is running >0x0D TIF> >0x28 TIF> >0x1A0 TIF> >0x0D TIF> >0x28 TIF> >0x11E4 TIF>  returns TRUE (0014ms, 5132ms total)
T27DC 016:425 JLINK_Halt()  returns 0x00 (0000ms, 5118ms total)
T27DC 016:425 JLINK_IsHalted()  returns TRUE (0000ms, 5118ms total)
T27DC 016:425 JLINK_IsHalted()  returns TRUE (0000ms, 5118ms total)
T27DC 016:425 JLINK_IsHalted()  returns TRUE (0001ms, 5119ms total)
T27DC 016:426 JLINK_ReadReg(R15 (PC))  returns 0x08001B76 (0000ms, 5118ms total)
T27DC 016:426 JLINK_ReadReg(XPSR)  returns 0x61000000 (0000ms, 5118ms total)
T27DC 016:426 JLINK_ClrBPEx(BPHandle = 0x0000000A)  returns 0x00 (0000ms, 5118ms total)
T27DC 016:426 JLINK_ClrBPEx(BPHandle = 0x0000000B)  returns 0x00 (0000ms, 5118ms total)
T27DC 016:426 JLINK_ClrBPEx(BPHandle = 0x0000000C)  returns 0x00 (0000ms, 5118ms total)
T27DC 016:426 JLINK_ClrBPEx(BPHandle = 0x0000000D)  returns 0x00 (0000ms, 5118ms total)
T27DC 016:426 JLINK_ReadMemU32(0xE000ED30, 0x0001 Items, ...) >0x0D TIF> >0x28 TIF> >0x1A0 TIF> >0x0D TIF> >0x28 TIF> - Data: 0B 00 00 00  returns 0x01 (0010ms, 5128ms total)
T27DC 016:436 JLINK_ReadMemU32(0xE0001028, 0x0001 Items, ...) >0x0D TIF> >0x28 TIF> >0x1A0 TIF> >0x0D TIF> >0x28 TIF> - Data: 00 00 00 00  returns 0x01 (0010ms, 5138ms total)
T27DC 016:446 JLINK_ReadMemU32(0xE0001038, 0x0001 Items, ...) >0x0D TIF> >0x28 TIF> >0x1A0 TIF> >0x0D TIF> >0x28 TIF> - Data: 00 02 00 00  returns 0x01 (0009ms, 5147ms total)
T27DC 016:455 JLINK_ReadMemU32(0xE0001048, 0x0001 Items, ...) >0x0D TIF> >0x28 TIF> >0x1A0 TIF> >0x0D TIF> >0x28 TIF> - Data: 00 00 00 00  returns 0x01 (0011ms, 5158ms total)
T27DC 016:466 JLINK_ReadMemU32(0xE0001058, 0x0001 Items, ...) >0x0D TIF> >0x28 TIF> >0x1A0 TIF> >0x0D TIF> >0x28 TIF> - Data: 00 00 00 00  returns 0x01 (0010ms, 5168ms total)
T27DC 016:476 JLINK_ReadReg(R0)  returns 0x00000100 (0000ms, 5168ms total)
T27DC 016:476 JLINK_ReadReg(R1)  returns 0x40010C00 (0000ms, 5168ms total)
T27DC 016:476 JLINK_ReadReg(R2)  returns 0x00000100 (0000ms, 5168ms total)
T27DC 016:476 JLINK_ReadReg(R3)  returns 0x00000200 (0000ms, 5168ms total)
T27DC 016:476 JLINK_ReadReg(R4)  returns 0x00000000 (0000ms, 5168ms total)
T27DC 016:476 JLINK_ReadReg(R5)  returns 0x00000000 (0000ms, 5168ms total)
T27DC 016:476 JLINK_ReadReg(R6)  returns 0x00000000 (0000ms, 5168ms total)
T27DC 016:476 JLINK_ReadReg(R7)  returns 0x00000000 (0000ms, 5168ms total)
T27DC 016:476 JLINK_ReadReg(R8)  returns 0x00000000 (0000ms, 5168ms total)
T27DC 016:476 JLINK_ReadReg(R9)  returns 0x00000000 (0000ms, 5168ms total)
T27DC 016:476 JLINK_ReadReg(R10)  returns 0x00000000 (0000ms, 5168ms total)
T27DC 016:476 JLINK_ReadReg(R11)  returns 0x00000000 (0000ms, 5168ms total)
T27DC 016:476 JLINK_ReadReg(R12)  returns 0x00000150 (0000ms, 5168ms total)
T27DC 016:476 JLINK_ReadReg(R13 (SP))  returns 0x20007140 (0000ms, 5168ms total)
T27DC 016:476 JLINK_ReadReg(R14)  returns 0x08000D09 (0000ms, 5168ms total)
T27DC 016:476 JLINK_ReadReg(R15 (PC))  returns 0x08001B76 (0000ms, 5168ms total)
T27DC 016:476 JLINK_ReadReg(XPSR)  returns 0x61000000 (0000ms, 5168ms total)
T27DC 016:476 JLINK_ReadReg(MSP)  returns 0x20007140 (0000ms, 5168ms total)
T27DC 016:476 JLINK_ReadReg(PSP)  returns 0x00000000 (0000ms, 5168ms total)
T27DC 016:476 JLINK_ReadReg(CFBP)  returns 0x00000000 (0000ms, 5168ms total)
T27DC 016:476 JLINK_ReadReg(FPSCR) >0x0D TIF> >0x28 TIF> >0x1BA4 TIF> >0x0D TIF> >0x28 TIF>  returns 0x00000000 (0015ms, 5183ms total)
T27DC 016:491 JLINK_ReadReg(FPS0)  returns 0x00000000 (0000ms, 5183ms total)
T27DC 016:491 JLINK_ReadReg(FPS1)  returns 0x00000000 (0000ms, 5183ms total)
T27DC 016:491 JLINK_ReadReg(FPS2)  returns 0x00000000 (0000ms, 5183ms total)
T27DC 016:491 JLINK_ReadReg(FPS3)  returns 0x00000000 (0000ms, 5183ms total)
T27DC 016:491 JLINK_ReadReg(FPS4)  returns 0x00000000 (0000ms, 5183ms total)
T27DC 016:491 JLINK_ReadReg(FPS5)  returns 0x00000000 (0000ms, 5183ms total)
T27DC 016:491 JLINK_ReadReg(FPS6)  returns 0x00000000 (0000ms, 5183ms total)
T27DC 016:491 JLINK_ReadReg(FPS7)  returns 0x00000000 (0000ms, 5183ms total)
T27DC 016:491 JLINK_ReadReg(FPS8)  returns 0x00000000 (0000ms, 5183ms total)
T27DC 016:491 JLINK_ReadReg(FPS9)  returns 0x00000000 (0000ms, 5183ms total)
T27DC 016:491 JLINK_ReadReg(FPS10)  returns 0x00000000 (0000ms, 5183ms total)
T27DC 016:491 JLINK_ReadReg(FPS11)  returns 0x00000000 (0000ms, 5183ms total)
T27DC 016:491 JLINK_ReadReg(FPS12)  returns 0x00000000 (0000ms, 5183ms total)
T27DC 016:491 JLINK_ReadReg(FPS13)  returns 0x00000000 (0000ms, 5183ms total)
T27DC 016:491 JLINK_ReadReg(FPS14)  returns 0x00000000 (0000ms, 5183ms total)
T27DC 016:491 JLINK_ReadReg(FPS15)  returns 0x00000000 (0000ms, 5183ms total)
T27DC 016:491 JLINK_ReadReg(FPS16)  returns 0x00000000 (0000ms, 5183ms total)
T27DC 016:491 JLINK_ReadReg(FPS17)  returns 0x00000000 (0000ms, 5183ms total)
T27DC 016:491 JLINK_ReadReg(FPS18)  returns 0x00000000 (0000ms, 5183ms total)
T27DC 016:491 JLINK_ReadReg(FPS19)  returns 0x00000000 (0000ms, 5183ms total)
T27DC 016:491 JLINK_ReadReg(FPS20)  returns 0x00000000 (0000ms, 5183ms total)
T27DC 016:491 JLINK_ReadReg(FPS31)  returns 0x00000000 (0000ms, 5183ms total)
T27DC 016:491 JLINK_ReadReg(FPS7)  returns 0x00000000 (0000ms, 5183ms total)
T27DC 016:491 JLINK_ReadReg(FPS8)  returns 0x00000000 (0000ms, 5183ms total)
T27DC 016:491 JLINK_ReadReg(FPS9)  returns 0x00000000 (0000ms, 5183ms total)
T27DC 016:491 JLINK_ReadReg(FPS10)  returns 0x00000000 (0000ms, 5183ms total)
T27DC 016:491 JLINK_ReadReg(FPS11)  returns 0x00000000 (0000ms, 5183ms total)
T27DC 016:491 JLINK_ReadReg(FPS12)  returns 0x00000000 (0000ms, 5183ms total)
T27DC 016:491 JLINK_ReadReg(FPS13)  returns 0x00000000 (0000ms, 5183ms total)
T27DC 016:491 JLINK_ReadReg(FPS14)  returns 0x00000000 (0000ms, 5183ms total)
T27DC 016:491 JLINK_ReadReg(FPS15)  returns 0x00000000 (0000ms, 5183ms total)
T27DC 016:491 JLINK_ReadReg(FPS16)  returns 0x00000000 (0000ms, 5183ms total)
T033C 016:492 JLINK_ReadMem (0x20007144, 0x0004 Bytes, ...) >0x0D TIF> >0x28 TIF> >0x49D TIF> >0x0D TIF> >0x28 TIF> -- Updating C cache (64 bytes @ 0x20007140) -- Read from C cache (4 bytes @ 0x20007144) - Data: 09 02 00 08  returns 0x00 (0011ms, 5194ms total)
T033C 016:503 JLINK_ReadMem (0x00000000, 0x0001 Bytes, ...) >0x0D TIF> >0x28 TIF> >0x1A0 TIF> >0x0D TIF> >0x28 TIF> >0x0D TIF> >0x28 TIF> >0x49D TIF> >0x0D TIF> >0x28 TIF> -- Updating C cache (64 bytes @ 0x08000000) -- Read from C cache (1 bytes @ 0x08000000) - Data: 48  returns 0x00 (0021ms, 5215ms total)
T033C 016:524 JLINK_ReadMemU32(0xE0001004, 0x0001 Items, ...) >0x0D TIF> >0x28 TIF> >0x1A0 TIF> >0x0D TIF> >0x28 TIF> - Data: 5A FC 00 00  returns 0x01 (0010ms, 5225ms total)
T033C 016:535 JLINK_ReadMem (0x6C400000, 0x00A1 Bytes, ...) >0x0D TIF> >0x28 TIF> >0x2180 TIF> >0x0D TIF> >0x28 TIF> - Data: FC 1B 03 1C 0C 1B F5 1C FC 1B 03 1C 0C 1B F5 1C ...  returns 0x00 (0015ms, 5240ms total)
T033C 016:553 JLINK_ReadMem (0x08001B76, 0x0002 Bytes, ...) >0x0D TIF> >0x28 TIF> >0x49D TIF> >0x0D TIF> >0x28 TIF> -- Updating C cache (64 bytes @ 0x08001B40) -- Read from C cache (2 bytes @ 0x08001B76) - Data: 4F F4  returns 0x00 (0012ms, 5252ms total)
T033C 016:565 JLINK_ReadMem (0x08001B78, 0x003C Bytes, ...) >0x0D TIF> >0x28 TIF> >0x49D TIF> >0x0D TIF> >0x28 TIF> -- Updating C cache (64 bytes @ 0x08001B80) -- Read from C cache (60 bytes @ 0x08001B78) - Data: 7A 71 01 20 FF F7 76 FF FE F7 FC FC 00 BF 31 E0 ...  returns 0x00 (0011ms, 5263ms total)
T27DC 019:992 JLINK_Step() >0x0D TIF> >0x28 TIF> >0x1A0 TIF> >0x0D TIF> >0x28 TIF> -- Read from C cache (2 bytes @ 0x08001B76) -- Read from C cache (2 bytes @ 0x08001B78) -- Simulated  returns 0x00 (0011ms, 5274ms total)
T27DC 020:003 JLINK_ReadReg(R15 (PC))  returns 0x08001B7A (0000ms, 5274ms total)
T27DC 020:003 JLINK_ReadReg(XPSR)  returns 0x61000000 (0000ms, 5274ms total)
T27DC 020:003 JLINK_SetBPEx(Addr = 0x08001BE6, Type = 0xFFFFFFF2)  returns 0x0000000E (0000ms, 5274ms total)
T27DC 020:003 JLINK_SetBPEx(Addr = 0x08001BE2, Type = 0xFFFFFFF2)  returns 0x0000000F (0000ms, 5274ms total)
T27DC 020:003 JLINK_SetBPEx(Addr = 0x08001B76, Type = 0xFFFFFFF2)  returns 0x00000010 (0000ms, 5274ms total)
T27DC 020:003 JLINK_SetBPEx(Addr = 0x08001B72, Type = 0xFFFFFFF2)  returns 0x00000011 (0000ms, 5274ms total)
T27DC 020:003 JLINK_Go() >0x0D TIF> >0x28 TIF> >0x1A2 TIF> >0x0D TIF> >0x28 TIF> >0x0D TIF> >0x28 TIF> >0x1A2 TIF> >0x0D TIF> >0x28 TIF> >0x0D TIF> >0x28 TIF> >0x1A2 TIF> >0x0D TIF> >0x28 TIF> >0x0D TIF> >0x28 TIF> >0x1A2 TIF> >0x0D TIF> >0x28 TIF> >0x0D TIF> >0x28 TIF> >0x20E TIF> >0x13A TIF> >0x1A2 TIF> >0x0D TIF> >0x28 TIF> (0054ms, 5328ms total)
T27DC 020:157 JLINK_IsHalted() -- CPU is running >0x0D TIF> >0x28 TIF> >0x1A0 TIF> >0x0D TIF> >0x28 TIF>  returns FALSE (0010ms, 5338ms total)
T27DC 020:267 JLINK_IsHalted() -- CPU is running >0x0D TIF> >0x28 TIF> >0x1A0 TIF> >0x0D TIF> >0x28 TIF>  returns FALSE (0010ms, 5338ms total)
T27DC 020:377 JLINK_IsHalted() -- CPU is running >0x0D TIF> >0x28 TIF> >0x1A0 TIF> >0x0D TIF> >0x28 TIF>  returns FALSE (0010ms, 5338ms total)
T27DC 020:487 JLINK_IsHalted() -- CPU is running >0x0D TIF> >0x28 TIF> >0x1A0 TIF> >0x0D TIF> >0x28 TIF>  returns FALSE (0010ms, 5338ms total)
T27DC 020:597 JLINK_IsHalted() -- CPU is running >0x0D TIF> >0x28 TIF> >0x1A0 TIF> >0x0D TIF> >0x28 TIF>  returns FALSE (0010ms, 5338ms total)
T27DC 020:707 JLINK_IsHalted() -- CPU is running >0x0D TIF> >0x28 TIF> >0x1A0 TIF> >0x0D TIF> >0x28 TIF>  returns FALSE (0010ms, 5338ms total)
T27DC 020:817 JLINK_IsHalted() -- CPU is running >0x0D TIF> >0x28 TIF> >0x1A0 TIF> >0x0D TIF> >0x28 TIF>  returns FALSE (0010ms, 5338ms total)
T27DC 020:927 JLINK_IsHalted() -- CPU is running >0x0D TIF> >0x28 TIF> >0x1A0 TIF> >0x0D TIF> >0x28 TIF>  returns FALSE (0010ms, 5338ms total)
T27DC 021:037 JLINK_IsHalted() -- CPU is running >0x0D TIF> >0x28 TIF> >0x1A0 TIF> >0x0D TIF> >0x28 TIF>  returns FALSE (0011ms, 5339ms total)
T27DC 021:148 JLINK_IsHalted() -- CPU is running >0x0D TIF> >0x28 TIF> >0x1A0 TIF> >0x0D TIF> >0x28 TIF> >0x11E4 TIF>  returns TRUE (0014ms, 5342ms total)
T27DC 021:162 JLINK_Halt()  returns 0x00 (0000ms, 5328ms total)
T27DC 021:163 JLINK_IsHalted()  returns TRUE (0000ms, 5328ms total)
T27DC 021:163 JLINK_IsHalted()  returns TRUE (0000ms, 5328ms total)
T27DC 021:163 JLINK_IsHalted()  returns TRUE (0000ms, 5328ms total)
T27DC 021:163 JLINK_ReadReg(R15 (PC))  returns 0x08001BE2 (0000ms, 5328ms total)
T27DC 021:163 JLINK_ReadReg(XPSR)  returns 0x21000000 (0000ms, 5328ms total)
T27DC 021:163 JLINK_ClrBPEx(BPHandle = 0x0000000E)  returns 0x00 (0000ms, 5328ms total)
T27DC 021:163 JLINK_ClrBPEx(BPHandle = 0x0000000F)  returns 0x00 (0000ms, 5328ms total)
T27DC 021:163 JLINK_ClrBPEx(BPHandle = 0x00000010)  returns 0x00 (0000ms, 5328ms total)
T27DC 021:163 JLINK_ClrBPEx(BPHandle = 0x00000011)  returns 0x00 (0000ms, 5328ms total)
T27DC 021:163 JLINK_ReadMemU32(0xE000ED30, 0x0001 Items, ...) >0x0D TIF> >0x28 TIF> >0x1A0 TIF> >0x0D TIF> >0x28 TIF> - Data: 0B 00 00 00  returns 0x01 (0009ms, 5337ms total)
T27DC 021:172 JLINK_ReadMemU32(0xE0001028, 0x0001 Items, ...) >0x0D TIF> >0x28 TIF> >0x1A0 TIF> >0x0D TIF> >0x28 TIF> - Data: 00 00 00 00  returns 0x01 (0010ms, 5347ms total)
T27DC 021:182 JLINK_ReadMemU32(0xE0001038, 0x0001 Items, ...) >0x0D TIF> >0x28 TIF> >0x1A0 TIF> >0x0D TIF> >0x28 TIF> - Data: 00 02 00 00  returns 0x01 (0010ms, 5357ms total)
T27DC 021:192 JLINK_ReadMemU32(0xE0001048, 0x0001 Items, ...) >0x0D TIF> >0x28 TIF> >0x1A0 TIF> >0x0D TIF> >0x28 TIF> - Data: 00 00 00 00  returns 0x01 (0010ms, 5367ms total)
T27DC 021:202 JLINK_ReadMemU32(0xE0001058, 0x0001 Items, ...) >0x0D TIF> >0x28 TIF> >0x1A0 TIF> >0x0D TIF> >0x28 TIF> - Data: 00 00 00 00  returns 0x01 (0010ms, 5377ms total)
T27DC 021:212 JLINK_ReadReg(R0)  returns 0x00000001 (0000ms, 5377ms total)
T27DC 021:212 JLINK_ReadReg(R1)  returns 0x00000001 (0000ms, 5377ms total)
T27DC 021:212 JLINK_ReadReg(R2)  returns 0x20001080 (0000ms, 5377ms total)
T27DC 021:212 JLINK_ReadReg(R3)  returns 0x20001074 (0000ms, 5377ms total)
T27DC 021:212 JLINK_ReadReg(R4)  returns 0x00000000 (0001ms, 5378ms total)
T27DC 021:213 JLINK_ReadReg(R5)  returns 0x00000000 (0000ms, 5378ms total)
T27DC 021:213 JLINK_ReadReg(R6)  returns 0x00000000 (0000ms, 5378ms total)
T27DC 021:213 JLINK_ReadReg(R7)  returns 0x00000000 (0000ms, 5378ms total)
T27DC 021:213 JLINK_ReadReg(R8)  returns 0x00000000 (0000ms, 5378ms total)
T27DC 021:213 JLINK_ReadReg(R9)  returns 0x00000000 (0000ms, 5378ms total)
T27DC 021:213 JLINK_ReadReg(R10)  returns 0x00000000 (0000ms, 5378ms total)
T27DC 021:213 JLINK_ReadReg(R11)  returns 0x00000000 (0000ms, 5378ms total)
T27DC 021:213 JLINK_ReadReg(R12)  returns 0x00000150 (0000ms, 5378ms total)
T27DC 021:213 JLINK_ReadReg(R13 (SP))  returns 0x20007140 (0000ms, 5378ms total)
T27DC 021:213 JLINK_ReadReg(R14)  returns 0x08001BE1 (0000ms, 5378ms total)
T27DC 021:213 JLINK_ReadReg(R15 (PC))  returns 0x08001BE2 (0000ms, 5378ms total)
T27DC 021:213 JLINK_ReadReg(XPSR)  returns 0x21000000 (0000ms, 5378ms total)
T27DC 021:213 JLINK_ReadReg(MSP)  returns 0x20007140 (0000ms, 5378ms total)
T27DC 021:213 JLINK_ReadReg(PSP)  returns 0x00000000 (0000ms, 5378ms total)
T27DC 021:213 JLINK_ReadReg(CFBP)  returns 0x00000000 (0000ms, 5378ms total)
T27DC 021:213 JLINK_ReadReg(FPSCR) >0x0D TIF> >0x28 TIF> >0x1BA4 TIF> >0x0D TIF> >0x28 TIF>  returns 0x00000000 (0013ms, 5391ms total)
T27DC 021:226 JLINK_ReadReg(FPS0)  returns 0x00000000 (0000ms, 5391ms total)
T27DC 021:226 JLINK_ReadReg(FPS1)  returns 0x00000000 (0000ms, 5391ms total)
T27DC 021:226 JLINK_ReadReg(FPS2)  returns 0x00000000 (0000ms, 5391ms total)
T27DC 021:226 JLINK_ReadReg(FPS3)  returns 0x00000000 (0001ms, 5392ms total)
T27DC 021:227 JLINK_ReadReg(FPS4)  returns 0x00000000 (0000ms, 5392ms total)
T27DC 021:227 JLINK_ReadReg(FPS5)  returns 0x00000000 (0000ms, 5392ms total)
T27DC 021:227 JLINK_ReadReg(FPS6)  returns 0x00000000 (0000ms, 5392ms total)
T27DC 021:227 JLINK_ReadReg(FPS7)  returns 0x00000000 (0000ms, 5392ms total)
T27DC 021:227 JLINK_ReadReg(FPS8)  returns 0x00000000 (0000ms, 5392ms total)
T27DC 021:227 JLINK_ReadReg(FPS9)  returns 0x00000000 (0000ms, 5392ms total)
T27DC 021:227 JLINK_ReadReg(FPS10)  returns 0x00000000 (0000ms, 5392ms total)
T27DC 021:227 JLINK_ReadReg(FPS11)  returns 0x00000000 (0000ms, 5392ms total)
T27DC 021:227 JLINK_ReadReg(FPS12)  returns 0x00000000 (0000ms, 5392ms total)
T27DC 021:227 JLINK_ReadReg(FPS13)  returns 0x00000000 (0000ms, 5392ms total)
T27DC 021:227 JLINK_ReadReg(FPS14)  returns 0x00000000 (0000ms, 5392ms total)
T27DC 021:227 JLINK_ReadReg(FPS15)  returns 0x00000000 (0000ms, 5392ms total)
T27DC 021:227 JLINK_ReadReg(FPS16)  returns 0x00000000 (0000ms, 5392ms total)
T27DC 021:227 JLINK_ReadReg(FPS17)  returns 0x00000000 (0000ms, 5392ms total)
T27DC 021:227 JLINK_ReadReg(FPS18)  returns 0x00000000 (0000ms, 5392ms total)
T27DC 021:227 JLINK_ReadReg(FPS19)  returns 0x00000000 (0000ms, 5392ms total)
T27DC 021:227 JLINK_ReadReg(FPS20)  returns 0x00000000 (0000ms, 5392ms total)
T27DC 021:227 JLINK_ReadReg(FPS31)  returns 0x00000000 (0000ms, 5392ms total)
T27DC 021:227 JLINK_ReadReg(FPS7)  returns 0x00000000 (0000ms, 5392ms total)
T27DC 021:227 JLINK_ReadReg(FPS8)  returns 0x00000000 (0000ms, 5392ms total)
T27DC 021:227 JLINK_ReadReg(FPS9)  returns 0x00000000 (0000ms, 5392ms total)
T27DC 021:227 JLINK_ReadReg(FPS10)  returns 0x00000000 (0000ms, 5392ms total)
T27DC 021:227 JLINK_ReadReg(FPS11)  returns 0x00000000 (0000ms, 5392ms total)
T27DC 021:227 JLINK_ReadReg(FPS12)  returns 0x00000000 (0000ms, 5392ms total)
T27DC 021:227 JLINK_ReadReg(FPS13)  returns 0x00000000 (0000ms, 5392ms total)
T27DC 021:227 JLINK_ReadReg(FPS14)  returns 0x00000000 (0000ms, 5392ms total)
T27DC 021:227 JLINK_ReadReg(FPS15)  returns 0x00000000 (0000ms, 5392ms total)
T27DC 021:227 JLINK_ReadReg(FPS16)  returns 0x00000000 (0000ms, 5392ms total)
T033C 021:227 JLINK_ReadMem (0x20007144, 0x0004 Bytes, ...) >0x0D TIF> >0x28 TIF> >0x49D TIF> >0x0D TIF> >0x28 TIF> -- Updating C cache (64 bytes @ 0x20007140) -- Read from C cache (4 bytes @ 0x20007144) - Data: 09 02 00 08  returns 0x00 (0012ms, 5404ms total)
T033C 021:239 JLINK_ReadMem (0x00000000, 0x0001 Bytes, ...) >0x0D TIF> >0x28 TIF> >0x1A0 TIF> >0x0D TIF> >0x28 TIF> >0x0D TIF> >0x28 TIF> >0x49D TIF> >0x0D TIF> >0x28 TIF> -- Updating C cache (64 bytes @ 0x08000000) -- Read from C cache (1 bytes @ 0x08000000) - Data: 48  returns 0x00 (0022ms, 5426ms total)
T033C 021:261 JLINK_ReadMemU32(0xE0001004, 0x0001 Items, ...) >0x0D TIF> >0x28 TIF> >0x1A0 TIF> >0x0D TIF> >0x28 TIF> - Data: 98 60 04 0A  returns 0x01 (0010ms, 5436ms total)
T033C 021:271 JLINK_ReadMem (0x6C400000, 0x00A1 Bytes, ...) >0x0D TIF> >0x28 TIF> >0x2180 TIF> >0x0D TIF> >0x28 TIF> - Data: 28 2A 1D 2A 2A 2A 11 2A 28 2A 1D 2A 2A 2A 11 2A ...  returns 0x00 (0015ms, 5451ms total)
T033C 021:288 JLINK_ReadMem (0x08001BE2, 0x0002 Bytes, ...) >0x0D TIF> >0x28 TIF> >0x49D TIF> >0x0D TIF> >0x28 TIF> -- Updating C cache (64 bytes @ 0x08001BC0) -- Read from C cache (2 bytes @ 0x08001BE2) - Data: FE F7  returns 0x00 (0012ms, 5463ms total)
T033C 021:300 JLINK_ReadMem (0x08001BE4, 0x001C Bytes, ...) -- Read from C cache (28 bytes @ 0x08001BE4) - Data: FD FB FE F7 C9 FC 01 24 CC E7 00 00 1C 00 00 20 ...  returns 0x00 (0000ms, 5463ms total)
T033C 021:300 JLINK_ReadMem (0x08001C00, 0x0020 Bytes, ...) >0x0D TIF> >0x28 TIF> >0x49D TIF> >0x0D TIF> >0x28 TIF> -- Updating C cache (64 bytes @ 0x08001C00) -- Read from C cache (32 bytes @ 0x08001C00) - Data: 25 64 2C 20 4F 53 20 3D 20 25 64 2C 20 00 00 00 ...  returns 0x00 (0011ms, 5474ms total)
T033C 036:057 JLINK_ReadMem (0x08000672, 0x0002 Bytes, ...) >0x0D TIF> >0x28 TIF> >0x49D TIF> >0x0D TIF> >0x28 TIF> -- Updating C cache (64 bytes @ 0x08000640) -- Read from C cache (2 bytes @ 0x08000672) - Data: 4F F4  returns 0x00 (0012ms, 5486ms total)
T033C 036:069 JLINK_ReadMem (0x08000674, 0x003C Bytes, ...) >0x0D TIF> >0x28 TIF> >0x49D TIF> >0x0D TIF> >0x28 TIF> -- Updating C cache (64 bytes @ 0x08000680) -- Read from C cache (60 bytes @ 0x08000674) - Data: 80 70 00 F0 07 F8 10 BD 14 00 00 20 18 00 00 20 ...  returns 0x00 (0011ms, 5497ms total)
T27DC 039:629 JLINK_Step() >0x0D TIF> >0x28 TIF> >0x1A0 TIF> >0x0D TIF> >0x28 TIF> -- Read from C cache (2 bytes @ 0x08001BE2) -- Read from C cache (2 bytes @ 0x08001BE4) -- Simulated  returns 0x00 (0011ms, 5508ms total)
T27DC 039:640 JLINK_ReadReg(R15 (PC))  returns 0x080003E0 (0000ms, 5508ms total)
T27DC 039:641 JLINK_ReadReg(XPSR)  returns 0x21000000 (0000ms, 5509ms total)
T27DC 039:641 JLINK_SetBPEx(Addr = 0x08001BE6, Type = 0xFFFFFFF2)  returns 0x00000012 (0000ms, 5509ms total)
T27DC 039:641 JLINK_SetBPEx(Addr = 0x08001BE2, Type = 0xFFFFFFF2)  returns 0x00000013 (0000ms, 5509ms total)
T27DC 039:641 JLINK_SetBPEx(Addr = 0x08001B76, Type = 0xFFFFFFF2)  returns 0x00000014 (0000ms, 5509ms total)
T27DC 039:641 JLINK_SetBPEx(Addr = 0x08001B72, Type = 0xFFFFFFF2)  returns 0x00000015 (0000ms, 5509ms total)
T27DC 039:641 JLINK_SetBPEx(Addr = 0x08000672, Type = 0xFFFFFFF2)  returns 0x00000016 (0000ms, 5509ms total)
T27DC 039:641 JLINK_Go() >0x0D TIF> >0x28 TIF> >0x1A2 TIF> >0x0D TIF> >0x28 TIF> >0x0D TIF> >0x28 TIF> >0x1A2 TIF> >0x0D TIF> >0x28 TIF> >0x0D TIF> >0x28 TIF> >0x1A2 TIF> >0x0D TIF> >0x28 TIF> >0x0D TIF> >0x28 TIF> >0x1A2 TIF> >0x0D TIF> >0x28 TIF> >0x0D TIF> >0x28 TIF> >0x1A2 TIF> >0x0D TIF> >0x28 TIF> >0x0D TIF> >0x28 TIF> >0x1A2 TIF> >0x0D TIF> >0x28 TIF> >0x0D TIF> >0x28 TIF> >0x20E TIF> >0x13A TIF> >0x1A2 TIF> >0x0D TIF> >0x28 TIF> (0073ms, 5582ms total)
T27DC 039:814 JLINK_IsHalted() -- CPU is running >0x0D TIF> >0x28 TIF> >0x1A0 TIF> >0x0D TIF> >0x28 TIF> >0x11E4 TIF>  returns TRUE (0014ms, 5596ms total)
T27DC 039:828 JLINK_Halt()  returns 0x00 (0000ms, 5582ms total)
T27DC 039:828 JLINK_IsHalted()  returns TRUE (0000ms, 5582ms total)
T27DC 039:828 JLINK_IsHalted()  returns TRUE (0000ms, 5582ms total)
T27DC 039:828 JLINK_IsHalted()  returns TRUE (0000ms, 5582ms total)
T27DC 039:828 JLINK_ReadReg(R15 (PC))  returns 0x08000672 (0000ms, 5582ms total)
T27DC 039:828 JLINK_ReadReg(XPSR)  returns 0x21000027 (0000ms, 5582ms total)
T27DC 039:828 JLINK_ClrBPEx(BPHandle = 0x00000012)  returns 0x00 (0000ms, 5582ms total)
T27DC 039:828 JLINK_ClrBPEx(BPHandle = 0x00000013)  returns 0x00 (0000ms, 5582ms total)
T27DC 039:828 JLINK_ClrBPEx(BPHandle = 0x00000014)  returns 0x00 (0000ms, 5582ms total)
T27DC 039:828 JLINK_ClrBPEx(BPHandle = 0x00000015)  returns 0x00 (0000ms, 5582ms total)
T27DC 039:828 JLINK_ClrBPEx(BPHandle = 0x00000016)  returns 0x00 (0000ms, 5582ms total)
T27DC 039:828 JLINK_ReadMemU32(0xE000ED30, 0x0001 Items, ...) >0x0D TIF> >0x28 TIF> >0x1A0 TIF> >0x0D TIF> >0x28 TIF> - Data: 0B 00 00 00  returns 0x01 (0010ms, 5592ms total)
T27DC 039:838 JLINK_ReadMemU32(0xE0001028, 0x0001 Items, ...) >0x0D TIF> >0x28 TIF> >0x1A0 TIF> >0x0D TIF> >0x28 TIF> - Data: 00 00 00 00  returns 0x01 (0010ms, 5602ms total)
T27DC 039:848 JLINK_ReadMemU32(0xE0001038, 0x0001 Items, ...) >0x0D TIF> >0x28 TIF> >0x1A0 TIF> >0x0D TIF> >0x28 TIF> - Data: 00 02 00 00  returns 0x01 (0010ms, 5612ms total)
T27DC 039:858 JLINK_ReadMemU32(0xE0001048, 0x0001 Items, ...) >0x0D TIF> >0x28 TIF> >0x1A0 TIF> >0x0D TIF> >0x28 TIF> - Data: 00 00 00 00  returns 0x01 (0010ms, 5622ms total)
T27DC 039:868 JLINK_ReadMemU32(0xE0001058, 0x0001 Items, ...) >0x0D TIF> >0x28 TIF> >0x1A0 TIF> >0x0D TIF> >0x28 TIF> - Data: 00 00 00 00  returns 0x01 (0010ms, 5632ms total)
T27DC 039:878 JLINK_ReadReg(R0)  returns 0x000003E8 (0000ms, 5632ms total)
T27DC 039:878 JLINK_ReadReg(R1)  returns 0x20000018 (0000ms, 5632ms total)
T27DC 039:878 JLINK_ReadReg(R2)  returns 0x00000100 (0000ms, 5632ms total)
T27DC 039:878 JLINK_ReadReg(R3)  returns 0x20001074 (0000ms, 5632ms total)
T27DC 039:878 JLINK_ReadReg(R4)  returns 0x00000000 (0000ms, 5632ms total)
T27DC 039:878 JLINK_ReadReg(R5)  returns 0x00000000 (0000ms, 5632ms total)
T27DC 039:878 JLINK_ReadReg(R6)  returns 0x00000000 (0000ms, 5632ms total)
T27DC 039:878 JLINK_ReadReg(R7)  returns 0x00000000 (0000ms, 5632ms total)
T27DC 039:878 JLINK_ReadReg(R8)  returns 0x00000000 (0000ms, 5632ms total)
T27DC 039:878 JLINK_ReadReg(R9)  returns 0x00000000 (0000ms, 5632ms total)
T27DC 039:878 JLINK_ReadReg(R10)  returns 0x00000000 (0000ms, 5632ms total)
T27DC 039:878 JLINK_ReadReg(R11)  returns 0x00000000 (0001ms, 5633ms total)
T27DC 039:879 JLINK_ReadReg(R12)  returns 0x00000150 (0000ms, 5633ms total)
T27DC 039:879 JLINK_ReadReg(R13 (SP))  returns 0x20007118 (0000ms, 5633ms total)
T27DC 039:879 JLINK_ReadReg(R14)  returns 0x08001963 (0000ms, 5633ms total)
T27DC 039:879 JLINK_ReadReg(R15 (PC))  returns 0x08000672 (0000ms, 5633ms total)
